
T1D60 000:000 SEGGER J-Link V6.16c Log File (0000ms, 0000ms total)
T1D60 000:000 DLL Compiled: Jun 16 2017 18:14:49 (0000ms, 0000ms total)
T1D60 000:000 Logging started @ 2018-10-25 10:27 (0000ms, 0000ms total)
T1D60 000:000 JLINK_SetWarnOutHandler(...) (0000ms, 0000ms total)
T1D60 000:000 JLINK_OpenEx(...)
Firmware: J-Link V9 compiled Jun  2 2222 22:22:22
Hardware: V9.40
S/N: 81480416
Feature(s): GDB, RDI, FlashBP, FlashDL, JFlash, RDDIWEBSRV Webserver running on local port 19080 (0034ms, 0034ms total)
T1D60 000:000   returns O.K. (0034ms, 0034ms total)
T1D60 000:034 JLINK_GetEmuCaps()  returns 0xB9FF7BBF (0000ms, 0034ms total)
T1D60 000:034 JLINK_TIF_GetAvailable(...) (0001ms, 0035ms total)
T1D60 000:035 JLINK_SetErrorOutHandler(...) (0000ms, 0035ms total)
T1D60 000:035 JLINK_ExecCommand("ProjectFile = "C:\STM32F4\STM32F407VET_Demo\JLinkSettings.ini"", ...).   returns 0x00 (0086ms, 0121ms total)
T1D60 000:121 JLINK_ExecCommand("Device = STM32F407VETx", ...). Device "STM32F407VE" selected.  returns 0x00 (0001ms, 0122ms total)
T1D60 000:122 JLINK_ExecCommand("DisableConnectionTimeout", ...).   returns 0x01 (0000ms, 0122ms total)
T1D60 000:122 JLINK_GetHardwareVersion()  returns 0x16F30 (0000ms, 0122ms total)
T1D60 000:122 JLINK_GetDLLVersion()  returns 61603 (0000ms, 0122ms total)
T1D60 000:122 JLINK_GetFirmwareString(...) (0000ms, 0122ms total)
T1D60 000:122 JLINK_GetDLLVersion()  returns 61603 (0000ms, 0122ms total)
T1D60 000:122 JLINK_GetCompileDateTime() (0000ms, 0122ms total)
T1D60 000:122 JLINK_GetFirmwareString(...) (0000ms, 0122ms total)
T1D60 000:122 JLINK_GetHardwareVersion()  returns 0x16F30 (0000ms, 0122ms total)
T1D60 000:122 JLINK_TIF_Select(JLINKARM_TIF_JTAG)  returns 0x00 (0009ms, 0131ms total)
T1D60 000:131 JLINK_SetSpeed(5000) (0002ms, 0133ms total)
T1D60 000:133 JLINK_GetIdData(...) >0x2F8 JTAG>TotalIRLen = 9, IRPrint = 0x0011 >0x30 JTAG> >0x50 JTAG>JTAG chain detection found 2 devices: #0 Id: 0x4BA00477, IRLen: 04, CoreSight JTAG-DP #1 Id: 0x06413041, IRLen: 05, STM32 Boundary Scan >0x40 JTAG> >0x40 JTAG> >0x40 JTAG> >0x30 JTAG> >0x40 JTAG> >0x40 JTAG> >0x40 JTAG> >0x40 JTAG> >0x40 JTAG> >0x40 JTAG> >0x40 JTAG> >0x40 JTAG> >0x40 JTAG> >0x40 JTAG> >0x40 JTAG> >0x40 JTAG> >0x40 JTAG> >0x40 JTAG> >0x40 JTAG> >0x40 JTAG> >0x40 JTAG> >0x40 JTAG>
 >0x40 JTAG> >0x40 JTAG> >0x2F8 JTAG>TotalIRLen = 9, IRPrint = 0x0011 >0x30 JTAG> >0x50 JTAG>JTAG chain detection found 2 devices: #0 Id: 0x4BA00477, IRLen: 04, CoreSight JTAG-DP #1 Id: 0x06413041, IRLen: 05, STM32 Boundary ScanScanning APs, stopping at first AHB-AP found. >0x80 JTAG> >0x50 JTAG> >0x50 JTAG>AP[0] IDR: 0x24770011 (AHB-AP) >0x40 JTAG> >0x50 JTAG> >0x50 JTAG>AHB-AP ROM: 0xE00FF000 (Base addr. of first ROM table) >0x80 JTAG> >0x40 JTAG> >0x30 JTAG> >0x40 JTAG> >0x40 JTAG> >0x30 JTAG>
 >0x40 JTAG> >0x50 JTAG>CPUID reg.: 0x410FC241. Implementer code: 0x41 (ARM)Found Cortex-M4 r0p1, Little endian. -- CPU_ReadMem(4 bytes @ 0xE000EDF0) -- CPU_WriteMem(4 bytes @ 0xE000EDF0) -- CPU_ReadMem(4 bytes @ 0xE0002000)FPUnit: 6 code (BP) slots and 2 literal slots -- CPU_ReadMem(4 bytes @ 0xE000EDFC) -- CPU_WriteMem(4 bytes @ 0xE000EDFC) -- CPU_ReadMem(4 bytes @ 0xE0001000) -- CPU_WriteMem(4 bytes @ 0xE0001000) -- CPU_ReadMem(4 bytes @ 0xE000ED88) -- CPU_WriteMem(4 bytes @ 0xE000ED88)
 -- CPU_ReadMem(4 bytes @ 0xE000ED88) -- CPU_WriteMem(4 bytes @ 0xE000ED88)CoreSight components:ROMTbl[0] @ E00FF000 -- CPU_ReadMem(16 bytes @ 0xE00FF000) -- CPU_ReadMem(16 bytes @ 0xE000EFF0) -- CPU_ReadMem(16 bytes @ 0xE000EFE0)ROMTbl[0][0]: E000E000, CID: B105E00D, PID: 000BB00C SCS -- CPU_ReadMem(16 bytes @ 0xE0001FF0) -- CPU_ReadMem(16 bytes @ 0xE0001FE0)ROMTbl[0][1]: E0001000, CID: B105E00D, PID: 003BB002 DWT -- CPU_ReadMem(16 bytes @ 0xE0002FF0) -- CPU_ReadMem(16 bytes @ 0xE0002FE0)
ROMTbl[0][2]: E0002000, CID: B105E00D, PID: 002BB003 FPB -- CPU_ReadMem(16 bytes @ 0xE0000FF0) -- CPU_ReadMem(16 bytes @ 0xE0000FE0)ROMTbl[0][3]: E0000000, CID: B105E00D, PID: 003BB001 ITM -- CPU_ReadMem(16 bytes @ 0xE00FF010) -- CPU_ReadMem(16 bytes @ 0xE0040FF0) -- CPU_ReadMem(16 bytes @ 0xE0040FE0)ROMTbl[0][4]: E0040000, CID: B105900D, PID: 000BB9A1 TPIU -- CPU_ReadMem(16 bytes @ 0xE0041FF0) -- CPU_ReadMem(16 bytes @ 0xE0041FE0)ROMTbl[0][5]: E0041000, CID: B105900D, PID: 000BB925 ETM ScanLen=9
 NumDevices=2 aId[0]=0x4BA00477 aIrRead[0]=0 aScanLen[0]=0 aScanRead[0]=0 (0076ms, 0209ms total)
T1D60 000:210 JLINK_JTAG_GetDeviceID(DeviceIndex = 0)  returns 0x4BA00477 (0000ms, 0209ms total)
T1D60 000:210 JLINK_JTAG_GetDeviceInfo(DeviceIndex = 0)  returns 0x00 (0000ms, 0209ms total)
T1D60 000:210 JLINK_JTAG_GetDeviceID(DeviceIndex = 1)  returns 0x6413041 (0000ms, 0209ms total)
T1D60 000:210 JLINK_JTAG_GetDeviceInfo(DeviceIndex = 1)  returns 0x00 (0000ms, 0209ms total)
T1D60 000:210 JLINK_GetDLLVersion()  returns 61603 (0000ms, 0209ms total)
T1D60 000:210 JLINK_CORE_GetFound()  returns 0xE0000FF (0000ms, 0209ms total)
T1D60 000:210 JLINK_GetDebugInfo(0x100 = JLINKARM_ROM_TABLE_ADDR_INDEX) -- Value=0xE00FF000  returns 0x00 (0000ms, 0209ms total)
T1D60 000:210 JLINK_GetDebugInfo(0x100 = JLINKARM_ROM_TABLE_ADDR_INDEX) -- Value=0xE00FF000  returns 0x00 (0000ms, 0209ms total)
T1D60 000:210 JLINK_GetDebugInfo(0x101 = JLINKARM_DEBUG_INFO_ETM_ADDR_INDEX) -- Value=0xE0041000  returns 0x00 (0000ms, 0209ms total)
T1D60 000:210 JLINK_ReadMemEx(0xE0041FD0, 0x0020 Bytes, ..., Flags = 0x02000004) -- CPU_ReadMem(32 bytes @ 0xE0041FD0) - Data: 04 00 00 00 00 00 00 00 00 00 00 00 00 00 00 00 ...  returns 0x20 (0000ms, 0209ms total)
T1D60 000:210 JLINK_GetDebugInfo(0x102 = JLINKARM_DEBUG_INFO_MTB_ADDR_INDEX) -- Value=0x00000000  returns 0x00 (0000ms, 0209ms total)
T1D60 000:210 JLINK_GetDebugInfo(0x103 = JLINKARM_DEBUG_INFO_TPIU_ADDR_INDEX) -- Value=0xE0040000  returns 0x00 (0001ms, 0210ms total)
T1D60 000:211 JLINK_GetDebugInfo(0x104 = JLINKARM_DEBUG_INFO_ITM_ADDR_INDEX) -- Value=0xE0000000  returns 0x00 (0000ms, 0210ms total)
T1D60 000:211 JLINK_GetDebugInfo(0x105 = JLINKARM_DEBUG_INFO_DWT_ADDR_INDEX) -- Value=0xE0001000  returns 0x00 (0000ms, 0210ms total)
T1D60 000:211 JLINK_GetDebugInfo(0x106 = JLINKARM_DEBUG_INFO_FPB_ADDR_INDEX) -- Value=0xE0002000  returns 0x00 (0000ms, 0210ms total)
T1D60 000:211 JLINK_GetDebugInfo(0x107 = JLINKARM_DEBUG_INFO_NVIC_ADDR_INDEX) -- Value=0xE000E000  returns 0x00 (0000ms, 0210ms total)
T1D60 000:211 JLINK_GetDebugInfo(0x10C = JLINKARM_DEBUG_INFO_DBG_ADDR_INDEX) -- Value=0xE000EDF0  returns 0x00 (0000ms, 0210ms total)
T1D60 000:211 JLINK_ReadMemU32(0xE000EF40, 0x0001 Items, ...) -- CPU_ReadMem(4 bytes @ 0xE000EF40) - Data: 21 00 11 10  returns 0x01 (0000ms, 0210ms total)
T1D60 000:211 JLINK_ReadMemU32(0xE000EF44, 0x0001 Items, ...) -- CPU_ReadMem(4 bytes @ 0xE000EF44) - Data: 11 00 00 11  returns 0x01 (0002ms, 0212ms total)
T1D60 000:213 JLINK_ReadMemU32(0xE000ED00, 0x0001 Items, ...) -- CPU_ReadMem(4 bytes @ 0xE000ED00) - Data: 41 C2 0F 41  returns 0x01 (0001ms, 0213ms total)
T1D60 000:214 JLINK_GetDebugInfo(0x10F = JLINKARM_DEBUG_INFO_HAS_CORTEX_M_SECURITY_EXT_INDEX) -- Value=0x00000000  returns 0x00 (0000ms, 0213ms total)
T1D60 000:214 JLINK_SetResetType(JLINKARM_CM3_RESET_TYPE_NORMAL)  returns JLINKARM_CM3_RESET_TYPE_NORMAL (0000ms, 0213ms total)
T1D60 000:214 JLINK_Reset() -- CPU is running -- CPU_WriteMem(4 bytes @ 0xE000EDF0) -- CPU is running -- CPU_WriteMem(4 bytes @ 0xE000EDFC)Setting AIRCR.SYSRESETREQ -- CPU is running -- CPU_WriteMem(4 bytes @ 0xE000ED0C) -- CPU_ReadMem(4 bytes @ 0xE000ED0C) -- CPU_ReadMem(4 bytes @ 0xE000EDF0) -- CPU_ReadMem(4 bytes @ 0xE000EDF0) -- CPU_ReadMem(4 bytes @ 0xE000EDF0) -- CPU is running -- CPU_WriteMem(4 bytes @ 0xE000EDF0) -- CPU is running -- CPU_WriteMem(4 bytes @ 0xE000EDFC)
 -- CPU_ReadMem(4 bytes @ 0xE000EDF0) >0x80 JTAG> >0x40 JTAG> >0x30 JTAG> >0x40 JTAG> >0x50 JTAG> >0x40 JTAG> -- CPU_WriteMem(4 bytes @ 0xE000EDFC) -- CPU_WriteMem(4 bytes @ 0xE0001028) -- CPU_WriteMem(4 bytes @ 0xE0001038) -- CPU_WriteMem(4 bytes @ 0xE0001048) -- CPU_WriteMem(4 bytes @ 0xE0001058) -- CPU_WriteMem(4 bytes @ 0xE0002000) -- CPU_ReadMem(4 bytes @ 0xE000EDFC) -- CPU_ReadMem(4 bytes @ 0xE0001000) (0090ms, 0303ms total)
T1D60 000:304 JLINK_ReadReg(R15 (PC))  returns 0x0800024C (0000ms, 0303ms total)
T1D60 000:304 JLINK_ReadReg(XPSR)  returns 0x01000000 (0000ms, 0303ms total)
T1D60 000:304 JLINK_Halt()  returns 0x00 (0000ms, 0303ms total)
T1D60 000:304 JLINK_ReadMemU32(0xE000EDF0, 0x0001 Items, ...) -- CPU_ReadMem(4 bytes @ 0xE000EDF0) - Data: 03 00 03 00  returns 0x01 (0001ms, 0304ms total)
T1D60 000:305 JLINK_WriteU32(0xE000EDF0, 0xA05F0003) -- CPU_WriteMem(4 bytes @ 0xE000EDF0)  returns 0x00 (0001ms, 0305ms total)
T1D60 000:306 JLINK_WriteU32(0xE000EDFC, 0x01000000) -- CPU_WriteMem(4 bytes @ 0xE000EDFC)  returns 0x00 (0001ms, 0306ms total)
T1D60 000:307 JLINK_GetHWStatus(...)  returns 0x00 (0001ms, 0307ms total)
T1D60 000:308 JLINK_GetNumBPUnits(Type = 0xFFFFFF00)  returns 0x06 (0000ms, 0307ms total)
T1D60 000:308 JLINK_GetNumBPUnits(Type = 0xF0)  returns 0x2000 (0000ms, 0307ms total)
T1D60 000:308 JLINK_GetNumWPUnits()  returns 0x04 (0000ms, 0307ms total)
T1D60 000:308 JLINK_GetSpeed()  returns 0x1388 (0000ms, 0307ms total)
T1D60 000:308 JLINK_ReadMemU32(0xE000E004, 0x0001 Items, ...) -- CPU_ReadMem(4 bytes @ 0xE000E004) - Data: 02 00 00 00  returns 0x01 (0001ms, 0308ms total)
T1D60 000:309 JLINK_ReadMemU32(0xE000E004, 0x0001 Items, ...) -- CPU_ReadMem(4 bytes @ 0xE000E004) - Data: 02 00 00 00  returns 0x01 (0001ms, 0309ms total)
T1D60 000:310 JLINK_WriteMemEx(0xE0001000, 0x001C Bytes, ..., Flags = 0x02000004) - Data: 01 00 00 00 00 00 00 00 00 00 00 00 00 00 00 00 ... -- CPU_WriteMem(28 bytes @ 0xE0001000)  returns 0x1C (0001ms, 0310ms total)
T1D60 000:311 JLINK_ReadReg(R15 (PC))  returns 0x0800024C (0000ms, 0310ms total)
T1D60 000:311 JLINK_ReadReg(XPSR)  returns 0x01000000 (0000ms, 0310ms total)
T1D60 000:407 JLINK_SetResetType(JLINKARM_CM3_RESET_TYPE_NORMAL)  returns JLINKARM_CM3_RESET_TYPE_NORMAL (0000ms, 0310ms total)
T1D60 000:407 JLINK_Reset() -- CPU_WriteMem(4 bytes @ 0xE000EDF0) -- CPU_WriteMem(4 bytes @ 0xE000EDFC)Setting AIRCR.SYSRESETREQ -- CPU_WriteMem(4 bytes @ 0xE000ED0C) -- CPU_ReadMem(4 bytes @ 0xE000ED0C) -- CPU_ReadMem(4 bytes @ 0xE000EDF0) -- CPU_ReadMem(4 bytes @ 0xE000EDF0) -- CPU_ReadMem(4 bytes @ 0xE000EDF0) -- CPU_WriteMem(4 bytes @ 0xE000EDF0) -- CPU_WriteMem(4 bytes @ 0xE000EDFC) -- CPU_ReadMem(4 bytes @ 0xE000EDF0) >0x80 JTAG> >0x40 JTAG> >0x30 JTAG> >0x40 JTAG> >0x50 JTAG> >0x40 JTAG>
 -- CPU_WriteMem(4 bytes @ 0xE000EDFC) -- CPU_WriteMem(4 bytes @ 0xE0001028) -- CPU_WriteMem(4 bytes @ 0xE0001038) -- CPU_WriteMem(4 bytes @ 0xE0001048) -- CPU_WriteMem(4 bytes @ 0xE0001058) -- CPU_WriteMem(4 bytes @ 0xE0002000) -- CPU_ReadMem(4 bytes @ 0xE000EDFC) -- CPU_ReadMem(4 bytes @ 0xE0001000) (0090ms, 0400ms total)
T1D60 000:497 JLINK_ReadReg(R15 (PC))  returns 0x0800024C (0000ms, 0400ms total)
T1D60 000:497 JLINK_ReadReg(XPSR)  returns 0x01000000 (0000ms, 0400ms total)
T1D60 000:498 JLINK_ReadMemEx(0x0800024C, 0x003C Bytes, ..., Flags = 0x02000000) -- CPU_ReadMem(128 bytes @ 0x08000240) -- Updating C cache (128 bytes @ 0x08000240) -- Read from C cache (60 bytes @ 0x0800024C) - Data: 09 48 80 47 09 48 00 47 FE E7 FE E7 FE E7 FE E7 ...  returns 0x3C (0001ms, 0401ms total)
T1D60 000:681 JLINK_ReadMemEx(0x40011000, 0x0018 Bytes, ..., Flags = 0x02000004) -- CPU_ReadMem(24 bytes @ 0x40011000) - Data: 00 00 00 00 00 00 00 00 00 00 00 00 00 00 00 00 ...  returns 0x18 (0001ms, 0402ms total)
T1D60 000:682 JLINK_ReadMemEx(0x40011000, 0x0004 Bytes, ..., Flags = 0x02000004) -- CPU_ReadMem(4 bytes @ 0x40011000) - Data: 00 00 00 00  returns 0x04 (0001ms, 0403ms total)
T1D60 000:683 JLINK_ReadMemEx(0x40011004, 0x0004 Bytes, ..., Flags = 0x02000004) -- CPU_ReadMem(4 bytes @ 0x40011004) - Data: 00 00 00 00  returns 0x04 (0001ms, 0404ms total)
T1D60 000:684 JLINK_ReadMemEx(0x40011008, 0x0004 Bytes, ..., Flags = 0x02000004) -- CPU_ReadMem(4 bytes @ 0x40011008) - Data: 00 00 00 00  returns 0x04 (0001ms, 0405ms total)
T1D60 000:685 JLINK_ReadMemEx(0x4001100C, 0x0004 Bytes, ..., Flags = 0x02000004) -- CPU_ReadMem(4 bytes @ 0x4001100C) - Data: 00 00 00 00  returns 0x04 (0001ms, 0406ms total)
T1D60 000:686 JLINK_ReadMemEx(0x40011010, 0x0004 Bytes, ..., Flags = 0x02000004) -- CPU_ReadMem(4 bytes @ 0x40011010) - Data: 00 00 00 00  returns 0x04 (0001ms, 0407ms total)
T1D60 000:687 JLINK_ReadMemEx(0x40011014, 0x0004 Bytes, ..., Flags = 0x02000004) -- CPU_ReadMem(4 bytes @ 0x40011014) - Data: 00 00 00 00  returns 0x04 (0001ms, 0408ms total)
T1D60 000:688 JLINK_ReadMemEx(0x40011018, 0x0004 Bytes, ..., Flags = 0x02000004) -- CPU_ReadMem(4 bytes @ 0x40011018) - Data: 00 00 00 00  returns 0x04 (0001ms, 0409ms total)
T1D60 000:689 JLINK_ReadMemEx(0x40011018, 0x0004 Bytes, ..., Flags = 0x02000004) -- CPU_ReadMem(4 bytes @ 0x40011018) - Data: 00 00 00 00  returns 0x04 (0001ms, 0410ms total)
T1D60 001:869 JLINK_ReadReg(R0)  returns 0x00000000 (0001ms, 0411ms total)
T1D60 001:870 JLINK_ReadReg(R1)  returns 0x00000000 (0000ms, 0411ms total)
T1D60 001:870 JLINK_ReadReg(R2)  returns 0x00000000 (0000ms, 0411ms total)
T1D60 001:870 JLINK_ReadReg(R3)  returns 0x00000000 (0000ms, 0411ms total)
T1D60 001:870 JLINK_ReadReg(R4)  returns 0x00000000 (0000ms, 0411ms total)
T1D60 001:870 JLINK_ReadReg(R5)  returns 0x00000000 (0000ms, 0411ms total)
T1D60 001:870 JLINK_ReadReg(R6)  returns 0x00000000 (0000ms, 0411ms total)
T1D60 001:870 JLINK_ReadReg(R7)  returns 0x00000000 (0000ms, 0411ms total)
T1D60 001:870 JLINK_ReadReg(R8)  returns 0x00000000 (0000ms, 0411ms total)
T1D60 001:870 JLINK_ReadReg(R9)  returns 0x00000000 (0000ms, 0411ms total)
T1D60 001:870 JLINK_ReadReg(R10)  returns 0x00000000 (0000ms, 0411ms total)
T1D60 001:870 JLINK_ReadReg(R11)  returns 0x00000000 (0000ms, 0411ms total)
T1D60 001:870 JLINK_ReadReg(R12)  returns 0x00000000 (0000ms, 0411ms total)
T1D60 001:870 JLINK_ReadReg(R13 (SP))  returns 0x20001F60 (0000ms, 0411ms total)
T1D60 001:870 JLINK_ReadReg(R14)  returns 0xFFFFFFFF (0000ms, 0411ms total)
T1D60 001:870 JLINK_ReadReg(R15 (PC))  returns 0x0800024C (0000ms, 0411ms total)
T1D60 001:870 JLINK_ReadReg(XPSR)  returns 0x01000000 (0000ms, 0411ms total)
T1D60 001:870 JLINK_ReadReg(MSP)  returns 0x20001F60 (0001ms, 0412ms total)
T1D60 001:871 JLINK_ReadReg(PSP)  returns 0x00000000 (0000ms, 0412ms total)
T1D60 001:871 JLINK_ReadReg(CFBP)  returns 0x00000000 (0000ms, 0412ms total)
T1D60 001:871 JLINK_ReadReg(FPSCR)  returns 0x00000000 (0003ms, 0415ms total)
T1D60 001:874 JLINK_ReadReg(FPS0)  returns 0x00000000 (0000ms, 0415ms total)
T1D60 001:874 JLINK_ReadReg(FPS1)  returns 0x00000000 (0000ms, 0415ms total)
T1D60 001:874 JLINK_ReadReg(FPS2)  returns 0x00000000 (0000ms, 0415ms total)
T1D60 001:874 JLINK_ReadReg(FPS3)  returns 0x00000000 (0000ms, 0415ms total)
T1D60 001:874 JLINK_ReadReg(FPS4)  returns 0x00000000 (0000ms, 0415ms total)
T1D60 001:874 JLINK_ReadReg(FPS5)  returns 0x00000000 (0000ms, 0415ms total)
T1D60 001:874 JLINK_ReadReg(FPS6)  returns 0x00000000 (0000ms, 0415ms total)
T1D60 001:874 JLINK_ReadReg(FPS7)  returns 0x00000000 (0000ms, 0415ms total)
T1D60 001:874 JLINK_ReadReg(FPS8)  returns 0x00000000 (0000ms, 0415ms total)
T1D60 001:874 JLINK_ReadReg(FPS9)  returns 0x00000000 (0001ms, 0416ms total)
T1D60 001:875 JLINK_ReadReg(FPS10)  returns 0x00000000 (0000ms, 0416ms total)
T1D60 001:875 JLINK_ReadReg(FPS11)  returns 0x00000000 (0000ms, 0416ms total)
T1D60 001:875 JLINK_ReadReg(FPS12)  returns 0x00000000 (0000ms, 0416ms total)
T1D60 001:875 JLINK_ReadReg(FPS13)  returns 0x00000000 (0000ms, 0416ms total)
T1D60 001:875 JLINK_ReadReg(FPS14)  returns 0x00000000 (0000ms, 0416ms total)
T1D60 001:875 JLINK_ReadReg(FPS15)  returns 0x00000000 (0000ms, 0416ms total)
T1D60 001:875 JLINK_ReadReg(FPS16)  returns 0x00000000 (0000ms, 0416ms total)
T1D60 001:875 JLINK_ReadReg(FPS17)  returns 0x00000000 (0000ms, 0416ms total)
T1D60 001:875 JLINK_ReadReg(FPS18)  returns 0x00000000 (0000ms, 0416ms total)
T1D60 001:875 JLINK_ReadReg(FPS19)  returns 0x00000000 (0000ms, 0416ms total)
T1D60 001:875 JLINK_ReadReg(FPS20)  returns 0x00000000 (0000ms, 0416ms total)
T1D60 001:875 JLINK_ReadReg(FPS21)  returns 0x00000000 (0000ms, 0416ms total)
T1D60 001:875 JLINK_ReadReg(FPS22)  returns 0x00000000 (0000ms, 0416ms total)
T1D60 001:875 JLINK_ReadReg(FPS23)  returns 0x00000000 (0000ms, 0416ms total)
T1D60 001:875 JLINK_ReadReg(FPS24)  returns 0x00000000 (0000ms, 0416ms total)
T1D60 001:875 JLINK_ReadReg(FPS25)  returns 0x00000000 (0000ms, 0416ms total)
T1D60 001:875 JLINK_ReadReg(FPS26)  returns 0x00000000 (0000ms, 0416ms total)
T1D60 001:875 JLINK_ReadReg(FPS27)  returns 0x00000000 (0000ms, 0416ms total)
T1D60 001:875 JLINK_ReadReg(FPS28)  returns 0x00000000 (0000ms, 0416ms total)
T1D60 001:875 JLINK_ReadReg(FPS29)  returns 0x00000000 (0000ms, 0416ms total)
T1D60 001:875 JLINK_ReadReg(FPS30)  returns 0x00000000 (0000ms, 0416ms total)
T1D60 001:875 JLINK_ReadReg(FPS31)  returns 0x00000000 (0000ms, 0416ms total)
T2724 001:903 JLINK_ReadMemEx(0x0800024C, 0x0002 Bytes, ..., Flags = 0x02000000) -- Read from C cache (2 bytes @ 0x0800024C) - Data: 09 48  returns 0x02 (0000ms, 0416ms total)
T2724 001:903 JLINK_SetBPEx(Addr = 0x08002774, Type = 0xFFFFFFF2)  returns 0x00000001 (0000ms, 0416ms total)
T2724 001:903 JLINK_Go() -- CPU_ReadMem(4 bytes @ 0xE0001000) -- CPU_WriteMem(4 bytes @ 0xE0002008) -- CPU_WriteMem(4 bytes @ 0xE000200C) -- CPU_WriteMem(4 bytes @ 0xE0002010) -- CPU_WriteMem(4 bytes @ 0xE0002014) -- CPU_WriteMem(4 bytes @ 0xE0002018) -- CPU_WriteMem(4 bytes @ 0xE000201C) -- CPU_WriteMem(4 bytes @ 0xE0001004) (0005ms, 0421ms total)
T2724 002:009 JLINK_IsHalted()  returns TRUE (0003ms, 0424ms total)
T2724 002:012 JLINK_Halt()  returns 0x00 (0000ms, 0421ms total)
T2724 002:012 JLINK_IsHalted()  returns TRUE (0000ms, 0421ms total)
T2724 002:012 JLINK_IsHalted()  returns TRUE (0000ms, 0421ms total)
T2724 002:012 JLINK_IsHalted()  returns TRUE (0000ms, 0421ms total)
T2724 002:012 JLINK_ReadReg(R15 (PC))  returns 0x08002774 (0000ms, 0421ms total)
T2724 002:012 JLINK_ReadReg(XPSR)  returns 0x01000000 (0000ms, 0421ms total)
T2724 002:012 JLINK_ClrBPEx(BPHandle = 0x00000001)  returns 0x00 (0000ms, 0421ms total)
T2724 002:012 JLINK_ReadMemU32(0xE000ED30, 0x0001 Items, ...) -- CPU_ReadMem(4 bytes @ 0xE000ED30) - Data: 02 00 00 00  returns 0x01 (0001ms, 0422ms total)
T2724 002:013 JLINK_ReadMemU32(0xE0001028, 0x0001 Items, ...) -- CPU_ReadMem(4 bytes @ 0xE0001028) - Data: 00 00 00 00  returns 0x01 (0001ms, 0423ms total)
T2724 002:014 JLINK_ReadMemU32(0xE0001038, 0x0001 Items, ...) -- CPU_ReadMem(4 bytes @ 0xE0001038) - Data: 00 02 00 00  returns 0x01 (0001ms, 0424ms total)
T2724 002:015 JLINK_ReadMemU32(0xE0001048, 0x0001 Items, ...) -- CPU_ReadMem(4 bytes @ 0xE0001048) - Data: 00 00 00 00  returns 0x01 (0001ms, 0425ms total)
T2724 002:016 JLINK_ReadMemU32(0xE0001058, 0x0001 Items, ...) -- CPU_ReadMem(4 bytes @ 0xE0001058) - Data: 00 00 00 00  returns 0x01 (0001ms, 0426ms total)
T2724 002:017 JLINK_ReadReg(R0)  returns 0x20001960 (0000ms, 0426ms total)
T2724 002:017 JLINK_ReadReg(R1)  returns 0x20001B60 (0000ms, 0426ms total)
T2724 002:017 JLINK_ReadReg(R2)  returns 0x20001B60 (0000ms, 0426ms total)
T2724 002:017 JLINK_ReadReg(R3)  returns 0x20001B60 (0000ms, 0426ms total)
T2724 002:017 JLINK_ReadReg(R4)  returns 0x00000000 (0000ms, 0426ms total)
T2724 002:017 JLINK_ReadReg(R5)  returns 0x20001900 (0000ms, 0426ms total)
T2724 002:017 JLINK_ReadReg(R6)  returns 0x00000000 (0000ms, 0426ms total)
T2724 002:017 JLINK_ReadReg(R7)  returns 0x00000000 (0000ms, 0426ms total)
T2724 002:017 JLINK_ReadReg(R8)  returns 0x00000000 (0000ms, 0426ms total)
T2724 002:017 JLINK_ReadReg(R9)  returns 0x00000000 (0000ms, 0426ms total)
T2724 002:017 JLINK_ReadReg(R10)  returns 0x08002900 (0000ms, 0426ms total)
T2724 002:017 JLINK_ReadReg(R11)  returns 0x00000000 (0000ms, 0426ms total)
T2724 002:017 JLINK_ReadReg(R12)  returns 0x20001970 (0000ms, 0426ms total)
T2724 002:017 JLINK_ReadReg(R13 (SP))  returns 0x20001F60 (0000ms, 0426ms total)
T2724 002:017 JLINK_ReadReg(R14)  returns 0x0800023B (0000ms, 0426ms total)
T2724 002:017 JLINK_ReadReg(R15 (PC))  returns 0x08002774 (0000ms, 0426ms total)
T2724 002:017 JLINK_ReadReg(XPSR)  returns 0x01000000 (0000ms, 0426ms total)
T2724 002:017 JLINK_ReadReg(MSP)  returns 0x20001F60 (0000ms, 0426ms total)
T2724 002:017 JLINK_ReadReg(PSP)  returns 0x00000000 (0000ms, 0426ms total)
T2724 002:017 JLINK_ReadReg(CFBP)  returns 0x04000000 (0000ms, 0426ms total)
T2724 002:017 JLINK_ReadReg(FPSCR)  returns 0x03000000 (0004ms, 0430ms total)
T2724 002:021 JLINK_ReadReg(FPS0)  returns 0x00000000 (0000ms, 0430ms total)
T2724 002:021 JLINK_ReadReg(FPS1)  returns 0x00000000 (0000ms, 0430ms total)
T2724 002:021 JLINK_ReadReg(FPS2)  returns 0x00000000 (0000ms, 0430ms total)
T2724 002:021 JLINK_ReadReg(FPS3)  returns 0x00000000 (0000ms, 0430ms total)
T2724 002:021 JLINK_ReadReg(FPS4)  returns 0x00000000 (0000ms, 0430ms total)
T2724 002:021 JLINK_ReadReg(FPS5)  returns 0x00000000 (0000ms, 0430ms total)
T2724 002:021 JLINK_ReadReg(FPS6)  returns 0x00000000 (0000ms, 0430ms total)
T2724 002:021 JLINK_ReadReg(FPS7)  returns 0x00000000 (0000ms, 0430ms total)
T2724 002:021 JLINK_ReadReg(FPS8)  returns 0x00000000 (0000ms, 0430ms total)
T2724 002:021 JLINK_ReadReg(FPS9)  returns 0x00000000 (0000ms, 0430ms total)
T2724 002:021 JLINK_ReadReg(FPS10)  returns 0x00000000 (0000ms, 0430ms total)
T2724 002:021 JLINK_ReadReg(FPS11)  returns 0x00000000 (0000ms, 0430ms total)
T2724 002:021 JLINK_ReadReg(FPS12)  returns 0x00000000 (0000ms, 0430ms total)
T2724 002:021 JLINK_ReadReg(FPS13)  returns 0x00000000 (0000ms, 0430ms total)
T2724 002:021 JLINK_ReadReg(FPS14)  returns 0x00000000 (0000ms, 0430ms total)
T2724 002:021 JLINK_ReadReg(FPS15)  returns 0x00000000 (0000ms, 0430ms total)
T2724 002:021 JLINK_ReadReg(FPS16)  returns 0x00000000 (0000ms, 0430ms total)
T2724 002:021 JLINK_ReadReg(FPS17)  returns 0x00000000 (0000ms, 0430ms total)
T2724 002:021 JLINK_ReadReg(FPS18)  returns 0x00000000 (0000ms, 0430ms total)
T2724 002:021 JLINK_ReadReg(FPS19)  returns 0x00000000 (0000ms, 0430ms total)
T2724 002:021 JLINK_ReadReg(FPS20)  returns 0x00000000 (0000ms, 0430ms total)
T2724 002:021 JLINK_ReadReg(FPS21)  returns 0x00000000 (0000ms, 0430ms total)
T2724 002:021 JLINK_ReadReg(FPS22)  returns 0x00000000 (0000ms, 0430ms total)
T2724 002:021 JLINK_ReadReg(FPS23)  returns 0x00000000 (0000ms, 0430ms total)
T2724 002:021 JLINK_ReadReg(FPS24)  returns 0x00000000 (0000ms, 0430ms total)
T2724 002:021 JLINK_ReadReg(FPS25)  returns 0x00000000 (0000ms, 0430ms total)
T2724 002:021 JLINK_ReadReg(FPS26)  returns 0x00000000 (0000ms, 0430ms total)
T2724 002:021 JLINK_ReadReg(FPS27)  returns 0x00000000 (0000ms, 0430ms total)
T2724 002:021 JLINK_ReadReg(FPS28)  returns 0x00000000 (0000ms, 0430ms total)
T2724 002:021 JLINK_ReadReg(FPS29)  returns 0x00000000 (0000ms, 0430ms total)
T2724 002:021 JLINK_ReadReg(FPS30)  returns 0x00000000 (0000ms, 0430ms total)
T2724 002:021 JLINK_ReadReg(FPS31)  returns 0x00000000 (0000ms, 0430ms total)
T1D60 002:024 JLINK_ReadMemEx(0x40011000, 0x0018 Bytes, ..., Flags = 0x02000004) -- CPU_ReadMem(24 bytes @ 0x40011000) - Data: 00 00 00 00 00 00 00 00 00 00 00 00 00 00 00 00 ...  returns 0x18 (0000ms, 0430ms total)
T1D60 002:024 JLINK_ReadMemEx(0x40011000, 0x0004 Bytes, ..., Flags = 0x02000004) -- CPU_ReadMem(4 bytes @ 0x40011000) - Data: 00 00 00 00  returns 0x04 (0001ms, 0431ms total)
T1D60 002:025 JLINK_ReadMemEx(0x40011004, 0x0004 Bytes, ..., Flags = 0x02000004) -- CPU_ReadMem(4 bytes @ 0x40011004) - Data: 00 00 00 00  returns 0x04 (0001ms, 0432ms total)
T1D60 002:026 JLINK_ReadMemEx(0x40011008, 0x0004 Bytes, ..., Flags = 0x02000004) -- CPU_ReadMem(4 bytes @ 0x40011008) - Data: 00 00 00 00  returns 0x04 (0001ms, 0433ms total)
T1D60 002:027 JLINK_ReadMemEx(0x4001100C, 0x0004 Bytes, ..., Flags = 0x02000004) -- CPU_ReadMem(4 bytes @ 0x4001100C) - Data: 00 00 00 00  returns 0x04 (0001ms, 0434ms total)
T1D60 002:028 JLINK_ReadMemEx(0x40011010, 0x0004 Bytes, ..., Flags = 0x02000004) -- CPU_ReadMem(4 bytes @ 0x40011010) - Data: 00 00 00 00  returns 0x04 (0001ms, 0435ms total)
T1D60 002:029 JLINK_ReadMemEx(0x40011014, 0x0004 Bytes, ..., Flags = 0x02000004) -- CPU_ReadMem(4 bytes @ 0x40011014) - Data: 00 00 00 00  returns 0x04 (0001ms, 0436ms total)
T1D60 002:030 JLINK_ReadMemEx(0x40011018, 0x0004 Bytes, ..., Flags = 0x02000004) -- CPU_ReadMem(4 bytes @ 0x40011018) - Data: 00 00 00 00  returns 0x04 (0001ms, 0437ms total)
T1D60 002:031 JLINK_ReadMemEx(0x40011018, 0x0004 Bytes, ..., Flags = 0x02000004) -- CPU_ReadMem(4 bytes @ 0x40011018) - Data: 00 00 00 00  returns 0x04 (0001ms, 0438ms total)
T1D60 002:032 JLINK_ReadMemEx(0x08002774, 0x003C Bytes, ..., Flags = 0x02000000) -- CPU_ReadMem(128 bytes @ 0x08002740) -- Updating C cache (128 bytes @ 0x08002740) -- Read from C cache (60 bytes @ 0x08002774) - Data: FE F7 DA FA FF F7 D4 FA FF F7 22 F9 FF F7 9E F9 ...  returns 0x3C (0002ms, 0440ms total)
T2724 012:828 JLINK_ReadMemEx(0x08002774, 0x0002 Bytes, ..., Flags = 0x02000000) -- Read from C cache (2 bytes @ 0x08002774) - Data: FE F7  returns 0x02 (0001ms, 0441ms total)
T2724 012:829 JLINK_Go() -- CPU_ReadMem(4 bytes @ 0xE0001000) -- CPU_WriteMem(4 bytes @ 0xE0002008) (0004ms, 0445ms total)
T2724 012:934 JLINK_IsHalted()  returns FALSE (0001ms, 0446ms total)
T2724 013:035 JLINK_IsHalted()  returns FALSE (0000ms, 0445ms total)
T2724 013:137 JLINK_IsHalted()  returns FALSE (0001ms, 0446ms total)
T2724 013:238 JLINK_IsHalted()  returns FALSE (0000ms, 0445ms total)
T2724 013:339 JLINK_ReadMemU32(0xE0001004, 0x0001 Items, ...) -- CPU_ReadMem(4 bytes @ 0xE0001004) - Data: B9 05 14 05  returns 0x01 (0001ms, 0446ms total)
T1D60 013:341 JLINK_ReadMemEx(0x40011000, 0x0018 Bytes, ..., Flags = 0x02000004) -- CPU_ReadMem(24 bytes @ 0x40011000) - Data: C0 00 00 00 00 00 00 00 D9 02 00 00 2C 20 00 00 ...  returns 0x18 (0002ms, 0448ms total)
T1D60 013:343 JLINK_ReadMemEx(0x40011000, 0x0004 Bytes, ..., Flags = 0x02000004) -- CPU_ReadMem(4 bytes @ 0x40011000) - Data: C0 00 00 00  returns 0x04 (0001ms, 0449ms total)
T1D60 013:344 JLINK_ReadMemEx(0x40011004, 0x0004 Bytes, ..., Flags = 0x02000004) -- CPU_ReadMem(4 bytes @ 0x40011004) - Data: 00 00 00 00  returns 0x04 (0001ms, 0450ms total)
T1D60 013:345 JLINK_ReadMemEx(0x40011008, 0x0004 Bytes, ..., Flags = 0x02000004) -- CPU_ReadMem(4 bytes @ 0x40011008) - Data: D9 02 00 00  returns 0x04 (0001ms, 0451ms total)
T1D60 013:346 JLINK_ReadMemEx(0x4001100C, 0x0004 Bytes, ..., Flags = 0x02000004) -- CPU_ReadMem(4 bytes @ 0x4001100C) - Data: 2C 20 00 00  returns 0x04 (0001ms, 0452ms total)
T1D60 013:347 JLINK_ReadMemEx(0x40011010, 0x0004 Bytes, ..., Flags = 0x02000004) -- CPU_ReadMem(4 bytes @ 0x40011010) - Data: 00 00 00 00  returns 0x04 (0001ms, 0453ms total)
T1D60 013:348 JLINK_ReadMemEx(0x40011014, 0x0004 Bytes, ..., Flags = 0x02000004) -- CPU_ReadMem(4 bytes @ 0x40011014) - Data: 00 00 00 00  returns 0x04 (0001ms, 0454ms total)
T1D60 013:349 JLINK_ReadMemEx(0x40011018, 0x0004 Bytes, ..., Flags = 0x02000004) -- CPU_ReadMem(4 bytes @ 0x40011018) - Data: 00 00 00 00  returns 0x04 (0001ms, 0455ms total)
T1D60 013:350 JLINK_ReadMemEx(0x40011018, 0x0004 Bytes, ..., Flags = 0x02000004) -- CPU_ReadMem(4 bytes @ 0x40011018) - Data: 00 00 00 00  returns 0x04 (0001ms, 0456ms total)
T2724 013:357 JLINK_IsHalted()  returns FALSE (0000ms, 0456ms total)
T2724 013:457 JLINK_IsHalted()  returns FALSE (0001ms, 0457ms total)
T2724 013:559 JLINK_IsHalted()  returns FALSE (0001ms, 0457ms total)
T2724 013:660 JLINK_IsHalted()  returns FALSE (0000ms, 0456ms total)
T2724 013:761 JLINK_IsHalted()  returns FALSE (0001ms, 0457ms total)
T2724 013:862 JLINK_ReadMemU32(0xE0001004, 0x0001 Items, ...) - Data: B9 05 14 05  returns 0x01 (0000ms, 0456ms total)
T1D60 013:863 JLINK_ReadMemEx(0x40011000, 0x0018 Bytes, ..., Flags = 0x02000004) -- CPU_ReadMem(24 bytes @ 0x40011000) - Data: C0 00 00 00 00 00 00 00 D9 02 00 00 2C 20 00 00 ...  returns 0x18 (0001ms, 0457ms total)
T1D60 013:864 JLINK_ReadMemEx(0x40011000, 0x0004 Bytes, ..., Flags = 0x02000004) -- CPU_ReadMem(4 bytes @ 0x40011000) - Data: C0 00 00 00  returns 0x04 (0001ms, 0458ms total)
T1D60 013:865 JLINK_ReadMemEx(0x40011004, 0x0004 Bytes, ..., Flags = 0x02000004) -- CPU_ReadMem(4 bytes @ 0x40011004) - Data: 00 00 00 00  returns 0x04 (0001ms, 0459ms total)
T1D60 013:866 JLINK_ReadMemEx(0x40011008, 0x0004 Bytes, ..., Flags = 0x02000004) -- CPU_ReadMem(4 bytes @ 0x40011008) - Data: D9 02 00 00  returns 0x04 (0001ms, 0460ms total)
T1D60 013:867 JLINK_ReadMemEx(0x4001100C, 0x0004 Bytes, ..., Flags = 0x02000004) -- CPU_ReadMem(4 bytes @ 0x4001100C) - Data: 2C 20 00 00  returns 0x04 (0001ms, 0461ms total)
T1D60 013:868 JLINK_ReadMemEx(0x40011010, 0x0004 Bytes, ..., Flags = 0x02000004) -- CPU_ReadMem(4 bytes @ 0x40011010) - Data: 00 00 00 00  returns 0x04 (0001ms, 0462ms total)
T1D60 013:869 JLINK_ReadMemEx(0x40011014, 0x0004 Bytes, ..., Flags = 0x02000004) -- CPU_ReadMem(4 bytes @ 0x40011014) - Data: 00 00 00 00  returns 0x04 (0001ms, 0463ms total)
T1D60 013:870 JLINK_ReadMemEx(0x40011018, 0x0004 Bytes, ..., Flags = 0x02000004) -- CPU_ReadMem(4 bytes @ 0x40011018) - Data: 00 00 00 00  returns 0x04 (0001ms, 0464ms total)
T1D60 013:871 JLINK_ReadMemEx(0x40011018, 0x0004 Bytes, ..., Flags = 0x02000004) -- CPU_ReadMem(4 bytes @ 0x40011018) - Data: 00 00 00 00  returns 0x04 (0002ms, 0466ms total)
T2724 013:873 JLINK_IsHalted()  returns FALSE (0000ms, 0466ms total)
T2724 013:974 JLINK_IsHalted()  returns FALSE (0001ms, 0467ms total)
T2724 014:075 JLINK_IsHalted()  returns FALSE (0000ms, 0466ms total)
T2724 014:176 JLINK_IsHalted()  returns FALSE (0002ms, 0468ms total)
T2724 014:278 JLINK_IsHalted()  returns FALSE (0000ms, 0466ms total)
T2724 014:379 JLINK_ReadMemU32(0xE0001004, 0x0001 Items, ...) - Data: B9 05 14 05  returns 0x01 (0000ms, 0466ms total)
T1D60 014:380 JLINK_ReadMemEx(0x40011000, 0x0018 Bytes, ..., Flags = 0x02000004) -- CPU_ReadMem(24 bytes @ 0x40011000) - Data: C0 00 00 00 00 00 00 00 D9 02 00 00 2C 20 00 00 ...  returns 0x18 (0002ms, 0468ms total)
T1D60 014:382 JLINK_ReadMemEx(0x40011000, 0x0004 Bytes, ..., Flags = 0x02000004) -- CPU_ReadMem(4 bytes @ 0x40011000) - Data: C0 00 00 00  returns 0x04 (0001ms, 0469ms total)
T1D60 014:383 JLINK_ReadMemEx(0x40011004, 0x0004 Bytes, ..., Flags = 0x02000004) -- CPU_ReadMem(4 bytes @ 0x40011004) - Data: 00 00 00 00  returns 0x04 (0001ms, 0470ms total)
T1D60 014:384 JLINK_ReadMemEx(0x40011008, 0x0004 Bytes, ..., Flags = 0x02000004) -- CPU_ReadMem(4 bytes @ 0x40011008) - Data: D9 02 00 00  returns 0x04 (0001ms, 0471ms total)
T1D60 014:385 JLINK_ReadMemEx(0x4001100C, 0x0004 Bytes, ..., Flags = 0x02000004) -- CPU_ReadMem(4 bytes @ 0x4001100C) - Data: 2C 20 00 00  returns 0x04 (0001ms, 0472ms total)
T1D60 014:386 JLINK_ReadMemEx(0x40011010, 0x0004 Bytes, ..., Flags = 0x02000004) -- CPU_ReadMem(4 bytes @ 0x40011010) - Data: 00 00 00 00  returns 0x04 (0001ms, 0473ms total)
T1D60 014:387 JLINK_ReadMemEx(0x40011014, 0x0004 Bytes, ..., Flags = 0x02000004) -- CPU_ReadMem(4 bytes @ 0x40011014) - Data: 00 00 00 00  returns 0x04 (0001ms, 0474ms total)
T1D60 014:388 JLINK_ReadMemEx(0x40011018, 0x0004 Bytes, ..., Flags = 0x02000004) -- CPU_ReadMem(4 bytes @ 0x40011018) - Data: 00 00 00 00  returns 0x04 (0001ms, 0475ms total)
T1D60 014:389 JLINK_ReadMemEx(0x40011018, 0x0004 Bytes, ..., Flags = 0x02000004) -- CPU_ReadMem(4 bytes @ 0x40011018) - Data: 00 00 00 00  returns 0x04 (0001ms, 0476ms total)
T2724 014:390 JLINK_IsHalted()  returns FALSE (0001ms, 0477ms total)
T2724 014:491 JLINK_IsHalted()  returns FALSE (0000ms, 0476ms total)
T2724 014:592 JLINK_IsHalted()  returns FALSE (0001ms, 0477ms total)
T2724 014:693 JLINK_IsHalted()  returns FALSE (0000ms, 0476ms total)
T2724 014:794 JLINK_IsHalted()  returns FALSE (0001ms, 0477ms total)
T2724 014:896 JLINK_ReadMemU32(0xE0001004, 0x0001 Items, ...) - Data: B9 05 14 05  returns 0x01 (0000ms, 0476ms total)
T1D60 014:897 JLINK_ReadMemEx(0x40011000, 0x0018 Bytes, ..., Flags = 0x02000004) -- CPU_ReadMem(24 bytes @ 0x40011000) - Data: C0 00 00 00 00 00 00 00 D9 02 00 00 2C 20 00 00 ...  returns 0x18 (0001ms, 0477ms total)
T1D60 014:898 JLINK_ReadMemEx(0x40011000, 0x0004 Bytes, ..., Flags = 0x02000004) -- CPU_ReadMem(4 bytes @ 0x40011000) - Data: C0 00 00 00  returns 0x04 (0001ms, 0478ms total)
T1D60 014:899 JLINK_ReadMemEx(0x40011004, 0x0004 Bytes, ..., Flags = 0x02000004) -- CPU_ReadMem(4 bytes @ 0x40011004) - Data: 00 00 00 00  returns 0x04 (0000ms, 0478ms total)
T1D60 014:899 JLINK_ReadMemEx(0x40011008, 0x0004 Bytes, ..., Flags = 0x02000004) -- CPU_ReadMem(4 bytes @ 0x40011008) - Data: D9 02 00 00  returns 0x04 (0001ms, 0479ms total)
T1D60 014:900 JLINK_ReadMemEx(0x4001100C, 0x0004 Bytes, ..., Flags = 0x02000004) -- CPU_ReadMem(4 bytes @ 0x4001100C) - Data: 2C 20 00 00  returns 0x04 (0001ms, 0480ms total)
T1D60 014:901 JLINK_ReadMemEx(0x40011010, 0x0004 Bytes, ..., Flags = 0x02000004) -- CPU_ReadMem(4 bytes @ 0x40011010) - Data: 00 00 00 00  returns 0x04 (0001ms, 0481ms total)
T1D60 014:902 JLINK_ReadMemEx(0x40011014, 0x0004 Bytes, ..., Flags = 0x02000004) -- CPU_ReadMem(4 bytes @ 0x40011014) - Data: 00 00 00 00  returns 0x04 (0001ms, 0482ms total)
T1D60 014:903 JLINK_ReadMemEx(0x40011018, 0x0004 Bytes, ..., Flags = 0x02000004) -- CPU_ReadMem(4 bytes @ 0x40011018) - Data: 00 00 00 00  returns 0x04 (0001ms, 0483ms total)
T1D60 014:904 JLINK_ReadMemEx(0x40011018, 0x0004 Bytes, ..., Flags = 0x02000004) -- CPU_ReadMem(4 bytes @ 0x40011018) - Data: 00 00 00 00  returns 0x04 (0001ms, 0484ms total)
T2724 014:905 JLINK_IsHalted()  returns FALSE (0001ms, 0485ms total)
T2724 015:007 JLINK_IsHalted()  returns FALSE (0001ms, 0485ms total)
T2724 015:108 JLINK_IsHalted()  returns FALSE (0001ms, 0485ms total)
T2724 015:210 JLINK_IsHalted()  returns FALSE (0002ms, 0486ms total)
T2724 015:313 JLINK_IsHalted()  returns FALSE (0001ms, 0485ms total)
T2724 015:414 JLINK_ReadMemU32(0xE0001004, 0x0001 Items, ...) - Data: B9 05 14 05  returns 0x01 (0000ms, 0484ms total)
T1D60 015:415 JLINK_ReadMemEx(0x40011000, 0x0018 Bytes, ..., Flags = 0x02000004) -- CPU_ReadMem(24 bytes @ 0x40011000) - Data: C0 00 00 00 00 00 00 00 D9 02 00 00 2C 20 00 00 ...  returns 0x18 (0001ms, 0485ms total)
T1D60 015:416 JLINK_ReadMemEx(0x40011000, 0x0004 Bytes, ..., Flags = 0x02000004) -- CPU_ReadMem(4 bytes @ 0x40011000) - Data: C0 00 00 00  returns 0x04 (0001ms, 0486ms total)
T1D60 015:417 JLINK_ReadMemEx(0x40011004, 0x0004 Bytes, ..., Flags = 0x02000004) -- CPU_ReadMem(4 bytes @ 0x40011004) - Data: 00 00 00 00  returns 0x04 (0002ms, 0488ms total)
T1D60 015:419 JLINK_ReadMemEx(0x40011008, 0x0004 Bytes, ..., Flags = 0x02000004) -- CPU_ReadMem(4 bytes @ 0x40011008) - Data: D9 02 00 00  returns 0x04 (0001ms, 0489ms total)
T1D60 015:420 JLINK_ReadMemEx(0x4001100C, 0x0004 Bytes, ..., Flags = 0x02000004) -- CPU_ReadMem(4 bytes @ 0x4001100C) - Data: 2C 20 00 00  returns 0x04 (0001ms, 0490ms total)
T1D60 015:421 JLINK_ReadMemEx(0x40011010, 0x0004 Bytes, ..., Flags = 0x02000004) -- CPU_ReadMem(4 bytes @ 0x40011010) - Data: 00 00 00 00  returns 0x04 (0001ms, 0491ms total)
T1D60 015:422 JLINK_ReadMemEx(0x40011014, 0x0004 Bytes, ..., Flags = 0x02000004) -- CPU_ReadMem(4 bytes @ 0x40011014) - Data: 00 00 00 00  returns 0x04 (0001ms, 0492ms total)
T1D60 015:423 JLINK_ReadMemEx(0x40011018, 0x0004 Bytes, ..., Flags = 0x02000004) -- CPU_ReadMem(4 bytes @ 0x40011018) - Data: 00 00 00 00  returns 0x04 (0001ms, 0493ms total)
T1D60 015:424 JLINK_ReadMemEx(0x40011018, 0x0004 Bytes, ..., Flags = 0x02000004) -- CPU_ReadMem(4 bytes @ 0x40011018) - Data: 00 00 00 00  returns 0x04 (0001ms, 0494ms total)
T2724 015:425 JLINK_IsHalted()  returns FALSE (0001ms, 0495ms total)
T2724 015:526 JLINK_IsHalted()  returns FALSE (0001ms, 0495ms total)
T2724 015:628 JLINK_IsHalted()  returns FALSE (0002ms, 0496ms total)
T2724 015:731 JLINK_IsHalted()  returns FALSE (0001ms, 0495ms total)
T2724 015:832 JLINK_IsHalted()  returns FALSE (0000ms, 0494ms total)
T2724 015:933 JLINK_ReadMemU32(0xE0001004, 0x0001 Items, ...) - Data: B9 05 14 05  returns 0x01 (0000ms, 0494ms total)
T1D60 015:934 JLINK_ReadMemEx(0x40011000, 0x0018 Bytes, ..., Flags = 0x02000004) -- CPU_ReadMem(24 bytes @ 0x40011000) - Data: C0 00 00 00 00 00 00 00 D9 02 00 00 2C 20 00 00 ...  returns 0x18 (0001ms, 0495ms total)
T1D60 015:935 JLINK_ReadMemEx(0x40011000, 0x0004 Bytes, ..., Flags = 0x02000004) -- CPU_ReadMem(4 bytes @ 0x40011000) - Data: C0 00 00 00  returns 0x04 (0001ms, 0496ms total)
T1D60 015:936 JLINK_ReadMemEx(0x40011004, 0x0004 Bytes, ..., Flags = 0x02000004) -- CPU_ReadMem(4 bytes @ 0x40011004) - Data: 00 00 00 00  returns 0x04 (0001ms, 0497ms total)
T1D60 015:937 JLINK_ReadMemEx(0x40011008, 0x0004 Bytes, ..., Flags = 0x02000004) -- CPU_ReadMem(4 bytes @ 0x40011008) - Data: D9 02 00 00  returns 0x04 (0001ms, 0498ms total)
T1D60 015:938 JLINK_ReadMemEx(0x4001100C, 0x0004 Bytes, ..., Flags = 0x02000004) -- CPU_ReadMem(4 bytes @ 0x4001100C) - Data: 2C 20 00 00  returns 0x04 (0001ms, 0499ms total)
T1D60 015:939 JLINK_ReadMemEx(0x40011010, 0x0004 Bytes, ..., Flags = 0x02000004) -- CPU_ReadMem(4 bytes @ 0x40011010) - Data: 00 00 00 00  returns 0x04 (0001ms, 0500ms total)
T1D60 015:940 JLINK_ReadMemEx(0x40011014, 0x0004 Bytes, ..., Flags = 0x02000004) -- CPU_ReadMem(4 bytes @ 0x40011014) - Data: 00 00 00 00  returns 0x04 (0001ms, 0501ms total)
T1D60 015:941 JLINK_ReadMemEx(0x40011018, 0x0004 Bytes, ..., Flags = 0x02000004) -- CPU_ReadMem(4 bytes @ 0x40011018) - Data: 00 00 00 00  returns 0x04 (0000ms, 0501ms total)
T1D60 015:941 JLINK_ReadMemEx(0x40011018, 0x0004 Bytes, ..., Flags = 0x02000004) -- CPU_ReadMem(4 bytes @ 0x40011018) - Data: 00 00 00 00  returns 0x04 (0001ms, 0502ms total)
T2724 015:943 JLINK_IsHalted()  returns FALSE (0000ms, 0502ms total)
T2724 016:044 JLINK_IsHalted()  returns FALSE (0000ms, 0502ms total)
T2724 016:145 JLINK_IsHalted()  returns FALSE (0001ms, 0503ms total)
T2724 016:246 JLINK_IsHalted()  returns FALSE (0001ms, 0503ms total)
T2724 016:348 JLINK_IsHalted()  returns FALSE (0001ms, 0503ms total)
T2724 016:449 JLINK_ReadMemU32(0xE0001004, 0x0001 Items, ...) - Data: B9 05 14 05  returns 0x01 (0000ms, 0502ms total)
T1D60 016:450 JLINK_ReadMemEx(0x40011000, 0x0018 Bytes, ..., Flags = 0x02000004) -- CPU_ReadMem(24 bytes @ 0x40011000) - Data: C0 00 00 00 00 00 00 00 D9 02 00 00 2C 20 00 00 ...  returns 0x18 (0001ms, 0503ms total)
T1D60 016:451 JLINK_ReadMemEx(0x40011000, 0x0004 Bytes, ..., Flags = 0x02000004) -- CPU_ReadMem(4 bytes @ 0x40011000) - Data: C0 00 00 00  returns 0x04 (0001ms, 0504ms total)
T1D60 016:452 JLINK_ReadMemEx(0x40011004, 0x0004 Bytes, ..., Flags = 0x02000004) -- CPU_ReadMem(4 bytes @ 0x40011004) - Data: 00 00 00 00  returns 0x04 (0001ms, 0505ms total)
T1D60 016:453 JLINK_ReadMemEx(0x40011008, 0x0004 Bytes, ..., Flags = 0x02000004) -- CPU_ReadMem(4 bytes @ 0x40011008) - Data: D9 02 00 00  returns 0x04 (0001ms, 0506ms total)
T1D60 016:454 JLINK_ReadMemEx(0x4001100C, 0x0004 Bytes, ..., Flags = 0x02000004) -- CPU_ReadMem(4 bytes @ 0x4001100C) - Data: 2C 20 00 00  returns 0x04 (0001ms, 0507ms total)
T1D60 016:455 JLINK_ReadMemEx(0x40011010, 0x0004 Bytes, ..., Flags = 0x02000004) -- CPU_ReadMem(4 bytes @ 0x40011010) - Data: 00 00 00 00  returns 0x04 (0001ms, 0508ms total)
T1D60 016:456 JLINK_ReadMemEx(0x40011014, 0x0004 Bytes, ..., Flags = 0x02000004) -- CPU_ReadMem(4 bytes @ 0x40011014) - Data: 00 00 00 00  returns 0x04 (0001ms, 0509ms total)
T1D60 016:457 JLINK_ReadMemEx(0x40011018, 0x0004 Bytes, ..., Flags = 0x02000004) -- CPU_ReadMem(4 bytes @ 0x40011018) - Data: 00 00 00 00  returns 0x04 (0001ms, 0510ms total)
T1D60 016:458 JLINK_ReadMemEx(0x40011018, 0x0004 Bytes, ..., Flags = 0x02000004) -- CPU_ReadMem(4 bytes @ 0x40011018) - Data: 00 00 00 00  returns 0x04 (0001ms, 0511ms total)
T2724 016:460 JLINK_IsHalted()  returns FALSE (0000ms, 0511ms total)
T2724 016:561 JLINK_IsHalted()  returns FALSE (0001ms, 0512ms total)
T2724 016:662 JLINK_IsHalted()  returns FALSE (0000ms, 0511ms total)
T2724 016:763 JLINK_IsHalted()  returns FALSE (0001ms, 0512ms total)
T2724 016:864 JLINK_IsHalted()  returns FALSE (0000ms, 0511ms total)
T2724 016:965 JLINK_ReadMemU32(0xE0001004, 0x0001 Items, ...) - Data: B9 05 14 05  returns 0x01 (0000ms, 0511ms total)
T1D60 016:966 JLINK_ReadMemEx(0x40011000, 0x0018 Bytes, ..., Flags = 0x02000004) -- CPU_ReadMem(24 bytes @ 0x40011000) - Data: C0 00 00 00 00 00 00 00 D9 02 00 00 2C 20 00 00 ...  returns 0x18 (0002ms, 0513ms total)
T1D60 016:968 JLINK_ReadMemEx(0x40011000, 0x0004 Bytes, ..., Flags = 0x02000004) -- CPU_ReadMem(4 bytes @ 0x40011000) - Data: C0 00 00 00  returns 0x04 (0001ms, 0514ms total)
T1D60 016:969 JLINK_ReadMemEx(0x40011004, 0x0004 Bytes, ..., Flags = 0x02000004) -- CPU_ReadMem(4 bytes @ 0x40011004) - Data: 00 00 00 00  returns 0x04 (0001ms, 0515ms total)
T1D60 016:970 JLINK_ReadMemEx(0x40011008, 0x0004 Bytes, ..., Flags = 0x02000004) -- CPU_ReadMem(4 bytes @ 0x40011008) - Data: D9 02 00 00  returns 0x04 (0001ms, 0516ms total)
T1D60 016:971 JLINK_ReadMemEx(0x4001100C, 0x0004 Bytes, ..., Flags = 0x02000004) -- CPU_ReadMem(4 bytes @ 0x4001100C) - Data: 2C 20 00 00  returns 0x04 (0001ms, 0517ms total)
T1D60 016:972 JLINK_ReadMemEx(0x40011010, 0x0004 Bytes, ..., Flags = 0x02000004) -- CPU_ReadMem(4 bytes @ 0x40011010) - Data: 00 00 00 00  returns 0x04 (0001ms, 0518ms total)
T1D60 016:973 JLINK_ReadMemEx(0x40011014, 0x0004 Bytes, ..., Flags = 0x02000004) -- CPU_ReadMem(4 bytes @ 0x40011014) - Data: 00 00 00 00  returns 0x04 (0001ms, 0519ms total)
T1D60 016:974 JLINK_ReadMemEx(0x40011018, 0x0004 Bytes, ..., Flags = 0x02000004) -- CPU_ReadMem(4 bytes @ 0x40011018) - Data: 00 00 00 00  returns 0x04 (0001ms, 0520ms total)
T1D60 016:975 JLINK_ReadMemEx(0x40011018, 0x0004 Bytes, ..., Flags = 0x02000004) -- CPU_ReadMem(4 bytes @ 0x40011018) - Data: 00 00 00 00  returns 0x04 (0001ms, 0521ms total)
T2724 016:976 JLINK_IsHalted()  returns FALSE (0001ms, 0522ms total)
T2724 017:077 JLINK_IsHalted()  returns FALSE (0000ms, 0521ms total)
T2724 017:178 JLINK_IsHalted()  returns FALSE (0001ms, 0522ms total)
T2724 017:279 JLINK_IsHalted()  returns FALSE (0001ms, 0522ms total)
T2724 017:381 JLINK_IsHalted()  returns FALSE (0000ms, 0521ms total)
T2724 017:482 JLINK_ReadMemU32(0xE0001004, 0x0001 Items, ...) - Data: B9 05 14 05  returns 0x01 (0000ms, 0521ms total)
T1D60 017:484 JLINK_ReadMemEx(0x40011000, 0x0018 Bytes, ..., Flags = 0x02000004) -- CPU_ReadMem(24 bytes @ 0x40011000) - Data: C0 00 00 00 00 00 00 00 D9 02 00 00 2C 20 00 00 ...  returns 0x18 (0001ms, 0522ms total)
T1D60 017:485 JLINK_ReadMemEx(0x40011000, 0x0004 Bytes, ..., Flags = 0x02000004) -- CPU_ReadMem(4 bytes @ 0x40011000) - Data: C0 00 00 00  returns 0x04 (0001ms, 0523ms total)
T1D60 017:486 JLINK_ReadMemEx(0x40011004, 0x0004 Bytes, ..., Flags = 0x02000004) -- CPU_ReadMem(4 bytes @ 0x40011004) - Data: 00 00 00 00  returns 0x04 (0001ms, 0524ms total)
T1D60 017:487 JLINK_ReadMemEx(0x40011008, 0x0004 Bytes, ..., Flags = 0x02000004) -- CPU_ReadMem(4 bytes @ 0x40011008) - Data: D9 02 00 00  returns 0x04 (0001ms, 0525ms total)
T1D60 017:488 JLINK_ReadMemEx(0x4001100C, 0x0004 Bytes, ..., Flags = 0x02000004) -- CPU_ReadMem(4 bytes @ 0x4001100C) - Data: 2C 20 00 00  returns 0x04 (0001ms, 0526ms total)
T1D60 017:489 JLINK_ReadMemEx(0x40011010, 0x0004 Bytes, ..., Flags = 0x02000004) -- CPU_ReadMem(4 bytes @ 0x40011010) - Data: 00 00 00 00  returns 0x04 (0001ms, 0527ms total)
T1D60 017:490 JLINK_ReadMemEx(0x40011014, 0x0004 Bytes, ..., Flags = 0x02000004) -- CPU_ReadMem(4 bytes @ 0x40011014) - Data: 00 00 00 00  returns 0x04 (0001ms, 0528ms total)
T1D60 017:491 JLINK_ReadMemEx(0x40011018, 0x0004 Bytes, ..., Flags = 0x02000004) -- CPU_ReadMem(4 bytes @ 0x40011018) - Data: 00 00 00 00  returns 0x04 (0001ms, 0529ms total)
T1D60 017:492 JLINK_ReadMemEx(0x40011018, 0x0004 Bytes, ..., Flags = 0x02000004) -- CPU_ReadMem(4 bytes @ 0x40011018) - Data: 00 00 00 00  returns 0x04 (0001ms, 0530ms total)
T2724 017:493 JLINK_IsHalted()  returns FALSE (0001ms, 0531ms total)
T2724 017:595 JLINK_IsHalted()  returns FALSE (0001ms, 0531ms total)
T2724 017:696 JLINK_IsHalted()  returns FALSE (0001ms, 0531ms total)
T2724 017:798 JLINK_IsHalted()  returns FALSE (0000ms, 0530ms total)
T2724 017:899 JLINK_IsHalted()  returns FALSE (0000ms, 0530ms total)
T2724 018:000 JLINK_ReadMemU32(0xE0001004, 0x0001 Items, ...) - Data: B9 05 14 05  returns 0x01 (0000ms, 0530ms total)
T1D60 018:001 JLINK_ReadMemEx(0x40011000, 0x0018 Bytes, ..., Flags = 0x02000004) -- CPU_ReadMem(24 bytes @ 0x40011000) - Data: C0 00 00 00 00 00 00 00 D9 02 00 00 2C 20 00 00 ...  returns 0x18 (0001ms, 0531ms total)
T1D60 018:002 JLINK_ReadMemEx(0x40011000, 0x0004 Bytes, ..., Flags = 0x02000004) -- CPU_ReadMem(4 bytes @ 0x40011000) - Data: C0 00 00 00  returns 0x04 (0001ms, 0532ms total)
T1D60 018:003 JLINK_ReadMemEx(0x40011004, 0x0004 Bytes, ..., Flags = 0x02000004) -- CPU_ReadMem(4 bytes @ 0x40011004) - Data: 00 00 00 00  returns 0x04 (0001ms, 0533ms total)
T1D60 018:004 JLINK_ReadMemEx(0x40011008, 0x0004 Bytes, ..., Flags = 0x02000004) -- CPU_ReadMem(4 bytes @ 0x40011008) - Data: D9 02 00 00  returns 0x04 (0001ms, 0534ms total)
T1D60 018:005 JLINK_ReadMemEx(0x4001100C, 0x0004 Bytes, ..., Flags = 0x02000004) -- CPU_ReadMem(4 bytes @ 0x4001100C) - Data: 2C 20 00 00  returns 0x04 (0001ms, 0535ms total)
T1D60 018:006 JLINK_ReadMemEx(0x40011010, 0x0004 Bytes, ..., Flags = 0x02000004) -- CPU_ReadMem(4 bytes @ 0x40011010) - Data: 00 00 00 00  returns 0x04 (0001ms, 0536ms total)
T1D60 018:007 JLINK_ReadMemEx(0x40011014, 0x0004 Bytes, ..., Flags = 0x02000004) -- CPU_ReadMem(4 bytes @ 0x40011014) - Data: 00 00 00 00  returns 0x04 (0002ms, 0538ms total)
T1D60 018:009 JLINK_ReadMemEx(0x40011018, 0x0004 Bytes, ..., Flags = 0x02000004) -- CPU_ReadMem(4 bytes @ 0x40011018) - Data: 00 00 00 00  returns 0x04 (0001ms, 0539ms total)
T1D60 018:010 JLINK_ReadMemEx(0x40011018, 0x0004 Bytes, ..., Flags = 0x02000004) -- CPU_ReadMem(4 bytes @ 0x40011018) - Data: 00 00 00 00  returns 0x04 (0001ms, 0540ms total)
T2724 018:011 JLINK_IsHalted()  returns FALSE (0001ms, 0541ms total)
T2724 018:112 JLINK_IsHalted()  returns FALSE (0001ms, 0541ms total)
T2724 018:214 JLINK_IsHalted()  returns FALSE (0000ms, 0540ms total)
T2724 018:315 JLINK_IsHalted()  returns FALSE (0001ms, 0541ms total)
T2724 018:416 JLINK_IsHalted()  returns FALSE (0000ms, 0540ms total)
T2724 018:517 JLINK_ReadMemU32(0xE0001004, 0x0001 Items, ...) - Data: B9 05 14 05  returns 0x01 (0000ms, 0540ms total)
T1D60 018:518 JLINK_ReadMemEx(0x40011000, 0x0018 Bytes, ..., Flags = 0x02000004) -- CPU_ReadMem(24 bytes @ 0x40011000) - Data: C0 00 00 00 00 00 00 00 D9 02 00 00 2C 20 00 00 ...  returns 0x18 (0002ms, 0542ms total)
T1D60 018:520 JLINK_ReadMemEx(0x40011000, 0x0004 Bytes, ..., Flags = 0x02000004) -- CPU_ReadMem(4 bytes @ 0x40011000) - Data: C0 00 00 00  returns 0x04 (0001ms, 0543ms total)
T1D60 018:521 JLINK_ReadMemEx(0x40011004, 0x0004 Bytes, ..., Flags = 0x02000004) -- CPU_ReadMem(4 bytes @ 0x40011004) - Data: 00 00 00 00  returns 0x04 (0001ms, 0544ms total)
T1D60 018:522 JLINK_ReadMemEx(0x40011008, 0x0004 Bytes, ..., Flags = 0x02000004) -- CPU_ReadMem(4 bytes @ 0x40011008) - Data: D9 02 00 00  returns 0x04 (0001ms, 0545ms total)
T1D60 018:523 JLINK_ReadMemEx(0x4001100C, 0x0004 Bytes, ..., Flags = 0x02000004) -- CPU_ReadMem(4 bytes @ 0x4001100C) - Data: 2C 20 00 00  returns 0x04 (0001ms, 0546ms total)
T1D60 018:524 JLINK_ReadMemEx(0x40011010, 0x0004 Bytes, ..., Flags = 0x02000004) -- CPU_ReadMem(4 bytes @ 0x40011010) - Data: 00 00 00 00  returns 0x04 (0000ms, 0546ms total)
T1D60 018:524 JLINK_ReadMemEx(0x40011014, 0x0004 Bytes, ..., Flags = 0x02000004) -- CPU_ReadMem(4 bytes @ 0x40011014) - Data: 00 00 00 00  returns 0x04 (0001ms, 0547ms total)
T1D60 018:525 JLINK_ReadMemEx(0x40011018, 0x0004 Bytes, ..., Flags = 0x02000004) -- CPU_ReadMem(4 bytes @ 0x40011018) - Data: 00 00 00 00  returns 0x04 (0001ms, 0548ms total)
T1D60 018:526 JLINK_ReadMemEx(0x40011018, 0x0004 Bytes, ..., Flags = 0x02000004) -- CPU_ReadMem(4 bytes @ 0x40011018) - Data: 00 00 00 00  returns 0x04 (0001ms, 0549ms total)
T2724 018:527 JLINK_IsHalted()  returns FALSE (0001ms, 0550ms total)
T2724 018:629 JLINK_IsHalted()  returns FALSE (0000ms, 0549ms total)
T2724 018:730 JLINK_IsHalted()  returns FALSE (0001ms, 0550ms total)
T2724 018:831 JLINK_IsHalted()  returns FALSE (0000ms, 0549ms total)
T2724 018:932 JLINK_IsHalted()  returns FALSE (0001ms, 0550ms total)
T2724 019:033 JLINK_ReadMemU32(0xE0001004, 0x0001 Items, ...) - Data: B9 05 14 05  returns 0x01 (0000ms, 0549ms total)
T1D60 019:034 JLINK_ReadMemEx(0x40011000, 0x0018 Bytes, ..., Flags = 0x02000004) -- CPU_ReadMem(24 bytes @ 0x40011000) - Data: C0 00 00 00 00 00 00 00 D9 02 00 00 2C 20 00 00 ...  returns 0x18 (0001ms, 0550ms total)
T1D60 019:035 JLINK_ReadMemEx(0x40011000, 0x0004 Bytes, ..., Flags = 0x02000004) -- CPU_ReadMem(4 bytes @ 0x40011000) - Data: C0 00 00 00  returns 0x04 (0001ms, 0551ms total)
T1D60 019:036 JLINK_ReadMemEx(0x40011004, 0x0004 Bytes, ..., Flags = 0x02000004) -- CPU_ReadMem(4 bytes @ 0x40011004) - Data: 00 00 00 00  returns 0x04 (0001ms, 0552ms total)
T1D60 019:037 JLINK_ReadMemEx(0x40011008, 0x0004 Bytes, ..., Flags = 0x02000004) -- CPU_ReadMem(4 bytes @ 0x40011008) - Data: D9 02 00 00  returns 0x04 (0001ms, 0553ms total)
T1D60 019:038 JLINK_ReadMemEx(0x4001100C, 0x0004 Bytes, ..., Flags = 0x02000004) -- CPU_ReadMem(4 bytes @ 0x4001100C) - Data: 2C 20 00 00  returns 0x04 (0001ms, 0554ms total)
T1D60 019:039 JLINK_ReadMemEx(0x40011010, 0x0004 Bytes, ..., Flags = 0x02000004) -- CPU_ReadMem(4 bytes @ 0x40011010) - Data: 00 00 00 00  returns 0x04 (0001ms, 0555ms total)
T1D60 019:040 JLINK_ReadMemEx(0x40011014, 0x0004 Bytes, ..., Flags = 0x02000004) -- CPU_ReadMem(4 bytes @ 0x40011014) - Data: 00 00 00 00  returns 0x04 (0001ms, 0556ms total)
